
T0BE0 000:815 SEGGER J-Link V4.15n (beta) Log File (0000ms, 0811ms total)
T0BE0 000:815 DLL Compiled: Jun 18 2010 19:55:09 (0001ms, 0811ms total)
T0BE0 000:815 Logging started @ 2010-11-23 17:13 (0001ms, 0811ms total)
T0BE0 000:816 JLINK_SetWarnOutHandler(...) (0000ms, 0812ms total)
T0BE0 000:816 JLINK_OpenEx(...)
Firmware: J-Link ARM V8 compiled May 20 2010 17:07:46
Hardware: V8.00
S/N: 158000502
Feature(s): RDI,FlashDL,FlashBP,JFlash,GDBFull  returns O.K. (0088ms, 0812ms total)
T0BE0 000:905 JLINK_SetErrorOutHandler(...) (0000ms, 0900ms total)
T0BE0 000:905 JLINK_ExecCommand("ProjectFile = "E:\ARM\Á·Ï°\calculator-OK\project\RVMDK\JLinkSettings.ini"", ...)  returns 0x00 (0002ms, 0900ms total)
T0BE0 000:907 JLINK_ExecCommand("DisableConnectionTimeout", ...)  returns 0x00 (0000ms, 0902ms total)
T0BE0 000:910 JLINK_TIF_Select(JLINKARM_TIF_JTAG)  returns 0x00 (0000ms, 0902ms total)
T0BE0 000:911 JLINK_SetSpeed(2000) (0000ms, 0903ms total)
T0BE0 000:911 JLINK_GetHardwareVersion()  returns 0x13880 (0001ms, 0903ms total)
T0BE0 000:912 JLINK_GetDLLVersion()  returns 41514 (0000ms, 0904ms total)
T0BE0 000:912 JLINK_GetFirmwareString(...) (0000ms, 0904ms total)
T0BE0 000:912 JLINK_GetDLLVersion()  returns 41514 (0000ms, 0904ms total)
T0BE0 000:912 JLINK_GetCompileDateTime() (0000ms, 0904ms total)
T0BE0 000:912 JLINK_GetFirmwareString(...) (0000ms, 0904ms total)
T0BE0 000:912 JLINK_GetHardwareVersion()  returns 0x13880 (0001ms, 0904ms total)
T0BE0 000:913 JLINK_Reset() >0x2F8 JTAG>TotalIRLen = 9, IRPrint = 0x0011 >0x30 JTAG> >0x210 JTAG> >0x118 JTAG> >0xD8 JTAG> >0x198 JTAG> >0x38 JTAG> >0x118 JTAG> >0xD8 JTAG> >0x2F0 JTAG> >0x2F0 JTAG> >0x198 JTAG> >0x198 JTAG>Found Cortex-M3 r1p1, Little endian. >0xD8 JTAG> >0x240 JTAG> >0x198 JTAG> >0x198 JTAG>TPIU fitted. >0x198 JTAG>ETM fitted. >0x198 JTAG>  FPUnit: 6 code (BP) slots and 2 literal slots >0x198 JTAG> >0x250 JTAG> >0x240 JTAG> >0x280 JTAG> >0x198 JTAG> >0x198 JTAG> >0x240 JTAG>
 >0x240 JTAG> >0x198 JTAG> >0x198 JTAG> >0x17A8 JTAG> >0x240 JTAG> >0x198 JTAG> >0x17A8 JTAG> >0x198 JTAG> -- CPU_WriteMem(4 bytes @ 0xE000EDFC) -- CPU_WriteMem(4 bytes @ 0xE0001028) -- CPU_WriteMem(4 bytes @ 0xE0001038) -- CPU_WriteMem(4 bytes @ 0xE0001048) -- CPU_WriteMem(4 bytes @ 0xE0001058) (0102ms, 0905ms total)
T0BE0 001:016 JLINK_GetIdData(...) ScanLen=9 NumDevices=2 aId[0]=0x3BA00477 aIrRead[0]=0 aScanLen[0]=0 aScanRead[0]=0 (0001ms, 1007ms total)
T0BE0 001:017 JLINK_JTAG_GetDeviceID(DeviceIndex = 0)  returns 0x3BA00477 (0000ms, 1008ms total)
T0BE0 001:017 JLINK_JTAG_GetDeviceInfo(DeviceIndex = 0)  returns 0x00 (0000ms, 1008ms total)
T0BE0 001:018 JLINK_JTAG_GetDeviceID(DeviceIndex = 1)  returns 0x6414041 (0000ms, 1009ms total)
T0BE0 001:018 JLINK_JTAG_GetDeviceInfo(DeviceIndex = 1)  returns 0x00 (0000ms, 1009ms total)
T0BE0 001:018 JLINK_GetDebugInfo(0x100) -- Value=0xE00FF003  returns 0x00 (0000ms, 1009ms total)
T0BE0 001:018 JLINK_ReadMem (0xE00FF000, 0x0018 Bytes, ...) -- CPU_ReadMem(24 bytes @ 0xE00FF000) -- Data:  03 F0 F0 FF 03 20 F0 FF 03 30 F0 FF 03 10 F0 FF ...  returns 0x00 (0002ms, 1009ms total)
T0BE0 001:020 JLINK_ReadMemU32(0xE000ED00, 0x0001 Items, ...) -- CPU_ReadMem(4 bytes @ 0xE000ED00) -- Data:  31 C2 1F 41  returns 0x01 (0001ms, 1011ms total)
T0BE0 001:022 JLINK_Halt()  returns 0x00 (0000ms, 1012ms total)
T0BE0 001:022 JLINK_IsHalted()  returns TRUE (0000ms, 1012ms total)
T0BE0 001:022 JLINK_ReadMemU32(0xE000EDF0, 0x0001 Items, ...) -- CPU_ReadMem(4 bytes @ 0xE000EDF0) -- Data:  03 00 03 00  returns 0x01 (0001ms, 1012ms total)
T0BE0 001:023 JLINK_WriteU32(0xE000EDF0, 0xA05F0003) -- CPU_WriteMem(4 bytes @ 0xE000EDF0)  returns 0x00 (0001ms, 1013ms total)
T0BE0 001:024 JLINK_WriteU32(0xE000EDFC, 0x01000000) -- CPU_WriteMem(4 bytes @ 0xE000EDFC)  returns 0x00 (0001ms, 1014ms total)
T0BE0 001:025 JLINK_ReadMemU32(0xE0002000, 0x0001 Items, ...) -- CPU_ReadMem(4 bytes @ 0xE0002000) -- Data:  60 02 00 00  returns 0x01 (0001ms, 1015ms total)
T0BE0 001:026 JLINK_ReadMemU32(0xE0001000, 0x0001 Items, ...) -- CPU_ReadMem(4 bytes @ 0xE0001000) -- Data:  01 00 00 40  returns 0x01 (0001ms, 1016ms total)
T0BE0 001:027 JLINK_ExecCommand("Device = STM32F103ZE", ...)
                JLINK_ExecCommand("map ram 0x20000000 - 0x2000FFFF", ...)  returns 0x00 (0000ms, 0000ms total)
                JLINK_AddMirrorAreaEx(Addr = 0x00000000, Size = 0x00000000) (0000ms, 0000ms total)
                returns 0x00 (0001ms, 1018ms total)
T0BE0 001:029 JLINK_GetHWStatus(...)  returns 0x00 (0001ms, 1019ms total)
T0BE0 001:030 JLINK_GetNumBPUnits(Type = 0xFFFFFF00) >0x2F8 JTAG>TotalIRLen = 9, IRPrint = 0x0011 >0x30 JTAG> >0x210 JTAG> >0x118 JTAG> >0xD8 JTAG> >0x198 JTAG> >0x38 JTAG> >0x118 JTAG> >0xD8 JTAG> >0x2F0 JTAG> >0x2F0 JTAG> >0x198 JTAG> >0x198 JTAG>Found Cortex-M3 r1p1, Little endian. >0xD8 JTAG> >0x240 JTAG> >0x198 JTAG> >0x198 JTAG>TPIU fitted. >0x198 JTAG>ETM fitted. >0x198 JTAG>  FPUnit: 6 code (BP) slots and 2 literal slots >0x198 JTAG>  returns 0x06 (0043ms, 1020ms total)
T0BE0 001:073 JLINK_GetNumBPUnits(Type = 0xF0)  returns 0x800 (0000ms, 1063ms total)
T0BE0 001:073 JLINK_GetNumWPUnits()  returns 0x04 (0001ms, 1063ms total)
T0BE0 001:074 JLINK_GetSpeed()  returns 0x7D0 (0000ms, 1064ms total)
T0BE0 001:074 JLINK_ReadMemU32(0xE000E004, 0x0001 Items, ...) -- CPU_ReadMem(4 bytes @ 0xE000E004) -- Data:  01 00 00 00  returns 0x01 (0001ms, 1064ms total)
T0BE0 001:075 JLINK_WriteMem(0xE0001000, 0x001C Bytes, ...) -- Data:  01 00 00 00 00 00 00 00 00 00 00 00 00 00 00 00 ... -- CPU_WriteMem(28 bytes @ 0xE0001000)  returns 0x1C (0001ms, 1065ms total)
T0BE0 001:076 JLINK_ReadMem (0xE0001000, 0x001C Bytes, ...) -- CPU_ReadMem(28 bytes @ 0xE0001000) -- Data:  01 00 00 40 00 00 00 00 00 00 00 00 00 00 00 00 ...  returns 0x00 (0001ms, 1066ms total)
T0BE0 001:077 JLINK_ReadReg(R15)  returns 0x08000100 (0001ms, 1067ms total)
T0BE0 001:078 JLINK_ReadReg(XPSR)  returns 0x01000000 (0000ms, 1068ms total)
T0BE0 001:727 JLINK_SetResetType(JLINKARM_RESET_TYPE_NORMAL)  returns JLINKARM_RESET_TYPE_NORMAL (0000ms, 1068ms total)
T0BE0 001:727 JLINK_Reset() >0x308 JTAG>TotalIRLen = 9, IRPrint = 0x0011 >0x30 JTAG> >0x210 JTAG> >0x118 JTAG> >0xD8 JTAG> >0x198 JTAG> >0x38 JTAG> >0x118 JTAG> >0xD8 JTAG> >0x2F0 JTAG> >0x2F0 JTAG> >0x198 JTAG> >0x198 JTAG>Found Cortex-M3 r1p1, Little endian. >0xD8 JTAG> >0x240 JTAG> >0x198 JTAG> >0x198 JTAG>TPIU fitted. >0x198 JTAG>ETM fitted. >0x198 JTAG>  FPUnit: 6 code (BP) slots and 2 literal slots >0x198 JTAG> >0x250 JTAG> >0x240 JTAG> >0x280 JTAG> >0x198 JTAG> >0x198 JTAG> >0x240 JTAG>
 >0x240 JTAG> >0x198 JTAG> >0x198 JTAG> >0x240 JTAG> >0x198 JTAG> >0x17A8 JTAG> >0x198 JTAG> -- CPU_WriteMem(4 bytes @ 0xE000EDFC) -- CPU_WriteMem(4 bytes @ 0xE0001028) -- CPU_WriteMem(4 bytes @ 0xE0001038) -- CPU_WriteMem(4 bytes @ 0xE0001048) -- CPU_WriteMem(4 bytes @ 0xE0001058) (0092ms, 1068ms total)
T0BE0 001:819 JLINK_ReadReg(R15)  returns 0x08000100 (0000ms, 1160ms total)
T0BE0 001:819 JLINK_ReadReg(XPSR)  returns 0x01000000 (0001ms, 1160ms total)
T0BE0 001:820 JLINK_ReadReg(R0)  returns 0x00000000 (0000ms, 1161ms total)
T0BE0 001:820 JLINK_ReadReg(R1)  returns 0x00000003 (0000ms, 1161ms total)
T0BE0 001:820 JLINK_ReadReg(R2)  returns 0x40022000 (0000ms, 1161ms total)
T0BE0 001:820 JLINK_ReadReg(R3)  returns 0x04C11DB7 (0000ms, 1161ms total)
T0BE0 001:820 JLINK_ReadReg(R4)  returns 0x00000000 (0000ms, 1161ms total)
T0BE0 001:820 JLINK_ReadReg(R5)  returns 0x00000000 (0000ms, 1161ms total)
T0BE0 001:821 JLINK_ReadReg(R6)  returns 0x00000000 (0000ms, 1162ms total)
T0BE0 001:821 JLINK_ReadReg(R7)  returns 0x00000000 (0000ms, 1162ms total)
T0BE0 001:821 JLINK_ReadReg(R8)  returns 0x00000000 (0000ms, 1162ms total)
T0BE0 001:821 JLINK_ReadReg(R9)  returns 0x20000160 (0000ms, 1162ms total)
T0BE0 001:821 JLINK_ReadReg(R10)  returns 0x00000000 (0000ms, 1162ms total)
T0BE0 001:821 JLINK_ReadReg(R11)  returns 0x00000000 (0000ms, 1162ms total)
T0BE0 001:821 JLINK_ReadReg(R12)  returns 0x00000000 (0001ms, 1162ms total)
T0BE0 001:822 JLINK_ReadReg(R13)  returns 0x200004E8 (0000ms, 1163ms total)
T0BE0 001:822 JLINK_ReadReg(R14)  returns 0xFFFFFFFF (0000ms, 1163ms total)
T0BE0 001:822 JLINK_ReadReg(R15)  returns 0x08000100 (0000ms, 1163ms total)
T0BE0 001:822 JLINK_ReadReg(XPSR)  returns 0x01000000 (0000ms, 1163ms total)
T0BE0 001:822 JLINK_ReadReg(MSP)  returns 0x200004E8 (0000ms, 1163ms total)
T0BE0 001:822 JLINK_ReadReg(PSP)  returns 0x20000800 (0000ms, 1163ms total)
T0BE0 001:822 JLINK_ReadReg(CFBP)  returns 0x00000000 (0001ms, 1163ms total)
T0BE0 001:824 JLINK_ReadMemU32(0xE0001004, 0x0001 Items, ...) -- CPU_ReadMem(4 bytes @ 0xE0001004) -- Data:  00 00 00 00  returns 0x01 (0001ms, 1164ms total)
T0BE0 001:826 JLINK_ReadMem (0x08000100, 0x003C Bytes, ...) -- CPU_ReadMem(64 bytes @ 0x08000100) -- Updating C cache (64 bytes @ 0x08000100) -- Read from C cache (60 bytes @ 0x08000100) -- Data:  00 48 00 47 ED 00 00 08 D2 B2 01 E0 00 F8 01 2B ...  returns 0x00 (0001ms, 1165ms total)
T0DDC 001:941 JLINK_SetBPEx(Addr = 0x080026B8, Type = 0xFFFFFFF2)  returns 0x00000001 (0000ms, 1167ms total)
T0DDC 001:941 JLINK_Go() -- CPU_WriteMem(4 bytes @ 0xE0002000) -- CPU_WriteMem(4 bytes @ 0xE0002008) -- CPU_WriteMem(4 bytes @ 0xE000200C) -- CPU_WriteMem(4 bytes @ 0xE0002010) -- CPU_WriteMem(4 bytes @ 0xE0002014) -- CPU_WriteMem(4 bytes @ 0xE0002018) -- CPU_WriteMem(4 bytes @ 0xE000201C) >0x240 JTAG> >0x240 JTAG> (0011ms, 1167ms total)
T0DDC 002:053 JLINK_IsHalted() >0x198 JTAG> >0x17A8 JTAG>  returns TRUE (0009ms, 1178ms total)
T0DDC 002:062 JLINK_Halt()  returns 0x00 (0000ms, 1178ms total)
T0DDC 002:062 JLINK_IsHalted()  returns TRUE (0000ms, 1178ms total)
T0DDC 002:062 JLINK_IsHalted()  returns TRUE (0000ms, 1178ms total)
T0DDC 002:063 JLINK_IsHalted()  returns TRUE (0000ms, 1178ms total)
T0DDC 002:063 JLINK_ReadReg(R15)  returns 0x080026B8 (0000ms, 1178ms total)
T0DDC 002:063 JLINK_ReadReg(XPSR)  returns 0x61000000 (0000ms, 1178ms total)
T0DDC 002:063 JLINK_ClrBPEx(BPHandle = 0x00000001)  returns 0x00 (0000ms, 1178ms total)
T0DDC 002:063 JLINK_ReadMemU32(0xE000ED30, 0x0001 Items, ...) -- CPU_ReadMem(4 bytes @ 0xE000ED30) -- Data:  0B 00 00 00  returns 0x01 (0001ms, 1178ms total)
T0DDC 002:064 JLINK_ReadMemU32(0xE0001028, 0x0001 Items, ...) -- CPU_ReadMem(4 bytes @ 0xE0001028) -- Data:  00 00 00 00  returns 0x01 (0001ms, 1179ms total)
T0DDC 002:065 JLINK_ReadMemU32(0xE0001038, 0x0001 Items, ...) -- CPU_ReadMem(4 bytes @ 0xE0001038) -- Data:  00 02 00 00  returns 0x01 (0001ms, 1180ms total)
T0DDC 002:066 JLINK_ReadMemU32(0xE0001048, 0x0001 Items, ...) -- CPU_ReadMem(4 bytes @ 0xE0001048) -- Data:  00 00 00 00  returns 0x01 (0001ms, 1181ms total)
T0DDC 002:067 JLINK_ReadMemU32(0xE0001058, 0x0001 Items, ...) -- CPU_ReadMem(4 bytes @ 0xE0001058) -- Data:  00 00 00 00  returns 0x01 (0001ms, 1182ms total)
T0DDC 002:068 JLINK_ReadReg(R0)  returns 0x080026B9 (0000ms, 1183ms total)
T0DDC 002:068 JLINK_ReadReg(R1)  returns 0x200004E8 (0000ms, 1183ms total)
T0DDC 002:069 JLINK_ReadReg(R2)  returns 0x00000000 (0000ms, 1184ms total)
T0DDC 002:069 JLINK_ReadReg(R3)  returns 0x08001C5D (0000ms, 1184ms total)
T0DDC 002:069 JLINK_ReadReg(R4)  returns 0x080056F8 (0000ms, 1184ms total)
T0DDC 002:069 JLINK_ReadReg(R5)  returns 0x080056F8 (0000ms, 1184ms total)
T0DDC 002:069 JLINK_ReadReg(R6)  returns 0x00000000 (0000ms, 1184ms total)
T0DDC 002:069 JLINK_ReadReg(R7)  returns 0x00000000 (0000ms, 1184ms total)
T0DDC 002:069 JLINK_ReadReg(R8)  returns 0x00000000 (0001ms, 1184ms total)
T0DDC 002:070 JLINK_ReadReg(R9)  returns 0x20000160 (0000ms, 1185ms total)
T0DDC 002:070 JLINK_ReadReg(R10)  returns 0x00000000 (0000ms, 1185ms total)
T0DDC 002:070 JLINK_ReadReg(R11)  returns 0x00000000 (0000ms, 1185ms total)
T0DDC 002:070 JLINK_ReadReg(R12)  returns 0x00000000 (0000ms, 1185ms total)
T0DDC 002:070 JLINK_ReadReg(R13)  returns 0x200004E8 (0000ms, 1185ms total)
T0DDC 002:070 JLINK_ReadReg(R14)  returns 0x08000945 (0000ms, 1185ms total)
T0DDC 002:071 JLINK_ReadReg(R15)  returns 0x080026B8 (0000ms, 1186ms total)
T0DDC 002:071 JLINK_ReadReg(XPSR)  returns 0x61000000 (0000ms, 1186ms total)
T0DDC 002:071 JLINK_ReadReg(MSP)  returns 0x200004E8 (0000ms, 1186ms total)
T0DDC 002:071 JLINK_ReadReg(PSP)  returns 0x20000800 (0000ms, 1186ms total)
T0DDC 002:071 JLINK_ReadReg(CFBP)  returns 0x00000000 (0000ms, 1186ms total)
T0BE0 002:283 JLINK_ReadMem (0x08000100, 0x003C Bytes, ...) -- CPU_ReadMem(64 bytes @ 0x08000100) -- Updating C cache (64 bytes @ 0x08000100) -- Read from C cache (60 bytes @ 0x08000100) -- Data:  00 48 00 47 ED 00 00 08 D2 B2 01 E0 00 F8 01 2B ...  returns 0x00 (0001ms, 1186ms total)
T0BE0 002:453 JLINK_ReadMemU32(0xE0001004, 0x0001 Items, ...) -- CPU_ReadMem(4 bytes @ 0xE0001004) -- Data:  E7 07 00 00  returns 0x01 (0001ms, 1188ms total)
T0BE0 002:474 JLINK_ReadMem (0x080026B8, 0x003C Bytes, ...) -- CPU_ReadMem(128 bytes @ 0x08002680) -- Updating C cache (128 bytes @ 0x08002680) -- Read from C cache (60 bytes @ 0x080026B8) -- Data:  1C B5 F5 4D 15 20 08 21 E8 61 59 20 28 62 69 62 ...  returns 0x00 (0003ms, 1190ms total)
T0DDC 003:840 JLINK_Go() >0x198 JTAG> -- CPU_WriteMem(4 bytes @ 0xE0002008) -- CPU_WriteMem(4 bytes @ 0xE000200C) -- CPU_WriteMem(4 bytes @ 0xE0002010) -- CPU_WriteMem(4 bytes @ 0xE0002014) -- CPU_WriteMem(4 bytes @ 0xE0002018) -- CPU_WriteMem(4 bytes @ 0xE000201C) >0x240 JTAG> >0x240 JTAG> (0014ms, 1193ms total)
T0DDC 003:955 JLINK_IsHalted() >0x198 JTAG>  returns FALSE (0003ms, 1207ms total)
T0DDC 004:058 JLINK_IsHalted() >0x198 JTAG>  returns FALSE (0002ms, 1207ms total)
T0DDC 004:161 JLINK_IsHalted() >0x198 JTAG>  returns FALSE (0002ms, 1207ms total)
T0DDC 004:265 JLINK_IsHalted() >0x198 JTAG>  returns FALSE (0001ms, 1207ms total)
T0DDC 004:367 JLINK_IsHalted() >0x198 JTAG>  returns FALSE (0002ms, 1207ms total)
T0DDC 004:470 JLINK_IsHalted() >0x198 JTAG>  returns FALSE (0002ms, 1207ms total)
T0DDC 004:572 JLINK_Halt() >0x240 JTAG> >0x198 JTAG> >0x17A8 JTAG>  returns 0x00 (0012ms, 1207ms total)
T0DDC 004:584 JLINK_IsHalted()  returns TRUE (0000ms, 1219ms total)
T0DDC 004:584 JLINK_IsHalted()  returns TRUE (0000ms, 1219ms total)
T0DDC 004:584 JLINK_IsHalted()  returns TRUE (0000ms, 1219ms total)
T0DDC 004:584 JLINK_ReadReg(R15)  returns 0x08002510 (0000ms, 1219ms total)
T0DDC 004:584 JLINK_ReadReg(XPSR)  returns 0x21000000 (0000ms, 1219ms total)
T0DDC 004:584 JLINK_ReadMemU32(0xE000ED30, 0x0001 Items, ...) -- CPU_ReadMem(4 bytes @ 0xE000ED30) -- Data:  0B 00 00 00  returns 0x01 (0002ms, 1219ms total)
T0DDC 004:586 JLINK_ReadMemU32(0xE0001028, 0x0001 Items, ...) -- CPU_ReadMem(4 bytes @ 0xE0001028) -- Data:  00 00 00 00  returns 0x01 (0001ms, 1221ms total)
T0DDC 004:587 JLINK_ReadMemU32(0xE0001038, 0x0001 Items, ...) -- CPU_ReadMem(4 bytes @ 0xE0001038) -- Data:  00 02 00 00  returns 0x01 (0001ms, 1222ms total)
T0DDC 004:588 JLINK_ReadMemU32(0xE0001048, 0x0001 Items, ...) -- CPU_ReadMem(4 bytes @ 0xE0001048) -- Data:  00 00 00 00  returns 0x01 (0001ms, 1223ms total)
T0DDC 004:589 JLINK_ReadMemU32(0xE0001058, 0x0001 Items, ...) -- CPU_ReadMem(4 bytes @ 0xE0001058) -- Data:  00 00 00 00  returns 0x01 (0001ms, 1224ms total)
T0DDC 004:590 JLINK_ReadReg(R0)  returns 0x00000273 (0000ms, 1225ms total)
T0DDC 004:590 JLINK_ReadReg(R1)  returns 0x20000000 (0000ms, 1225ms total)
T0DDC 004:590 JLINK_ReadReg(R2)  returns 0x0000008E (0000ms, 1225ms total)
T0DDC 004:590 JLINK_ReadReg(R3)  returns 0x000000F7 (0000ms, 1225ms total)
T0DDC 004:590 JLINK_ReadReg(R4)  returns 0x000003E8 (0001ms, 1225ms total)
T0DDC 004:591 JLINK_ReadReg(R5)  returns 0x20000000 (0000ms, 1226ms total)
T0DDC 004:591 JLINK_ReadReg(R6)  returns 0x00000000 (0000ms, 1226ms total)
T0DDC 004:591 JLINK_ReadReg(R7)  returns 0x00000000 (0000ms, 1226ms total)
T0DDC 004:591 JLINK_ReadReg(R8)  returns 0x00000000 (0000ms, 1226ms total)
T0DDC 004:591 JLINK_ReadReg(R9)  returns 0x20000160 (0000ms, 1226ms total)
T0DDC 004:591 JLINK_ReadReg(R10)  returns 0x00000000 (0000ms, 1226ms total)
T0DDC 004:591 JLINK_ReadReg(R11)  returns 0x00000000 (0001ms, 1226ms total)
T0DDC 004:592 JLINK_ReadReg(R12)  returns 0x0000000F (0000ms, 1227ms total)
T0DDC 004:592 JLINK_ReadReg(R13)  returns 0x200004A8 (0000ms, 1227ms total)
T0DDC 004:592 JLINK_ReadReg(R14)  returns 0x0800250B (0000ms, 1227ms total)
T0DDC 004:592 JLINK_ReadReg(R15)  returns 0x08002510 (0000ms, 1227ms total)
T0DDC 004:592 JLINK_ReadReg(XPSR)  returns 0x21000000 (0000ms, 1227ms total)
T0DDC 004:592 JLINK_ReadReg(MSP)  returns 0x200004A8 (0001ms, 1227ms total)
T0DDC 004:593 JLINK_ReadReg(PSP)  returns 0x20000800 (0000ms, 1228ms total)
T0DDC 004:593 JLINK_ReadReg(CFBP)  returns 0x00000000 (0000ms, 1228ms total)
T0DDC 004:593 JLINK_ReadMem (0x200004AC, 0x0004 Bytes, ...) -- CPU_ReadMem(64 bytes @ 0x20000480) -- Updating C cache (64 bytes @ 0x20000480) -- Read from C cache (4 bytes @ 0x200004AC) -- Data:  89 25 00 08  returns 0x00 (0002ms, 1228ms total)
T0DDC 004:595 JLINK_ReadMem (0x200004D4, 0x0004 Bytes, ...) -- CPU_ReadMem(64 bytes @ 0x200004C0) -- Updating C cache (64 bytes @ 0x200004C0) -- Read from C cache (4 bytes @ 0x200004D4) -- Data:  09 27 00 08  returns 0x00 (0002ms, 1230ms total)
T0BE0 004:598 JLINK_ReadMem (0x200004E4, 0x0004 Bytes, ...) -- Read from C cache (4 bytes @ 0x200004E4) -- Data:  45 09 00 08  returns 0x00 (0000ms, 1232ms total)
T0BE0 004:598 JLINK_ReadMemU32(0xE0001004, 0x0001 Items, ...) -- CPU_ReadMem(4 bytes @ 0xE0001004) -- Data:  18 4E 66 02  returns 0x01 (0001ms, 1232ms total)
T0BE0 004:618 JLINK_ReadMem (0x08002510, 0x003C Bytes, ...) -- CPU_ReadMem(128 bytes @ 0x08002500) -- Updating C cache (128 bytes @ 0x08002500) -- Read from C cache (60 bytes @ 0x08002510) -- Data:  00 28 FC D1 80 1E FF F7 21 FA BD E8 10 40 00 20 ...  returns 0x00 (0003ms, 1233ms total)
T0BE0 004:626 JLINK_ReadMem (0x0800250E, 0x0002 Bytes, ...) -- Read from C cache (2 bytes @ 0x0800250E) -- Data:  88 68  returns 0x00 (0000ms, 1236ms total)
T0DDC 041:272 JLINK_Go() >0x198 JTAG> -- CPU_WriteMem(4 bytes @ 0xE0002008) -- CPU_WriteMem(4 bytes @ 0xE000200C) -- CPU_WriteMem(4 bytes @ 0xE0002010) -- CPU_WriteMem(4 bytes @ 0xE0002014) -- CPU_WriteMem(4 bytes @ 0xE0002018) -- CPU_WriteMem(4 bytes @ 0xE000201C) >0x240 JTAG> >0x240 JTAG> (0014ms, 1236ms total)
T0DDC 041:387 JLINK_IsHalted() >0x198 JTAG>  returns FALSE (0002ms, 1250ms total)
T0DDC 041:489 JLINK_IsHalted() >0x198 JTAG>  returns FALSE (0002ms, 1250ms total)
T0DDC 041:592 JLINK_IsHalted() >0x198 JTAG>  returns FALSE (0002ms, 1250ms total)
T0DDC 041:694 JLINK_IsHalted() >0x198 JTAG>  returns FALSE (0002ms, 1250ms total)
T0DDC 041:797 JLINK_IsHalted() >0x198 JTAG>  returns FALSE (0002ms, 1250ms total)
T0DDC 041:899 JLINK_IsHalted() >0x198 JTAG>  returns FALSE (0002ms, 1250ms total)
T0DDC 042:002 JLINK_IsHalted() >0x198 JTAG>  returns FALSE (0002ms, 1250ms total)
T0DDC 042:104 JLINK_IsHalted() >0x198 JTAG>  returns FALSE (0002ms, 1250ms total)
T0DDC 042:207 JLINK_IsHalted() >0x198 JTAG>  returns FALSE (0002ms, 1250ms total)
T0DDC 042:309 JLINK_IsHalted() >0x198 JTAG>  returns FALSE (0003ms, 1250ms total)
T0DDC 042:413 JLINK_IsHalted() >0x198 JTAG>  returns FALSE (0002ms, 1250ms total)
T0DDC 042:515 JLINK_IsHalted() >0x198 JTAG>  returns FALSE (0002ms, 1250ms total)
T0DDC 042:618 JLINK_IsHalted() >0x198 JTAG>  returns FALSE (0002ms, 1250ms total)
T0DDC 042:721 JLINK_IsHalted() >0x198 JTAG>  returns FALSE (0002ms, 1250ms total)
T0DDC 042:824 JLINK_IsHalted() >0x198 JTAG>  returns FALSE (0002ms, 1250ms total)
T0DDC 042:927 JLINK_IsHalted() >0x198 JTAG>  returns FALSE (0002ms, 1250ms total)
T0DDC 043:029 JLINK_IsHalted() >0x198 JTAG>  returns FALSE (0002ms, 1250ms total)
T0DDC 043:132 JLINK_IsHalted() >0x198 JTAG>  returns FALSE (0002ms, 1250ms total)
T0DDC 043:234 JLINK_IsHalted() >0x198 JTAG>  returns FALSE (0002ms, 1250ms total)
T0DDC 043:337 JLINK_IsHalted() >0x198 JTAG>  returns FALSE (0002ms, 1250ms total)
T0DDC 043:439 JLINK_IsHalted() >0x198 JTAG>  returns FALSE (0002ms, 1250ms total)
T0DDC 043:542 JLINK_IsHalted() >0x198 JTAG>  returns FALSE (0002ms, 1250ms total)
T0DDC 043:644 JLINK_IsHalted() >0x198 JTAG>  returns FALSE (0003ms, 1250ms total)
T0DDC 043:748 JLINK_IsHalted() >0x198 JTAG>  returns FALSE (0002ms, 1250ms total)
T0DDC 043:850 JLINK_IsHalted() >0x198 JTAG>  returns FALSE (0002ms, 1250ms total)
T0DDC 043:953 JLINK_IsHalted() >0x198 JTAG>  returns FALSE (0002ms, 1250ms total)
T0DDC 044:056 JLINK_IsHalted() >0x198 JTAG>  returns FALSE (0001ms, 1250ms total)
T0DDC 044:158 JLINK_IsHalted() >0x198 JTAG>  returns FALSE (0002ms, 1250ms total)
T0DDC 044:261 JLINK_IsHalted() >0x198 JTAG>  returns FALSE (0002ms, 1250ms total)
T0DDC 044:363 JLINK_IsHalted() >0x198 JTAG>  returns FALSE (0003ms, 1250ms total)
T0DDC 044:467 JLINK_IsHalted() >0x198 JTAG>  returns FALSE (0002ms, 1250ms total)
T0DDC 044:569 JLINK_IsHalted() >0x198 JTAG>  returns FALSE (0002ms, 1250ms total)
T0DDC 044:672 JLINK_IsHalted() >0x198 JTAG>  returns FALSE (0002ms, 1250ms total)
T0DDC 044:774 JLINK_IsHalted() >0x198 JTAG>  returns FALSE (0002ms, 1250ms total)
T0DDC 044:877 JLINK_IsHalted() >0x198 JTAG>  returns FALSE (0002ms, 1250ms total)
T0DDC 044:979 JLINK_IsHalted() >0x198 JTAG>  returns FALSE (0002ms, 1250ms total)
T0DDC 045:082 JLINK_IsHalted() >0x198 JTAG>  returns FALSE (0002ms, 1250ms total)
T0DDC 045:184 JLINK_IsHalted() >0x198 JTAG>  returns FALSE (0002ms, 1250ms total)
T0DDC 045:287 JLINK_IsHalted() >0x198 JTAG>  returns FALSE (0002ms, 1250ms total)
T0DDC 045:390 JLINK_IsHalted() >0x198 JTAG>  returns FALSE (0002ms, 1250ms total)
T0DDC 045:493 JLINK_IsHalted() >0x198 JTAG>  returns FALSE (0002ms, 1250ms total)
T0DDC 045:596 JLINK_IsHalted() >0x198 JTAG>  returns FALSE (0003ms, 1250ms total)
T0DDC 045:699 JLINK_IsHalted() >0x198 JTAG>  returns FALSE (0002ms, 1250ms total)
T0DDC 045:802 JLINK_IsHalted() >0x198 JTAG>  returns FALSE (0002ms, 1250ms total)
T0DDC 045:905 JLINK_IsHalted() >0x198 JTAG>  returns FALSE (0002ms, 1250ms total)
T0DDC 046:008 JLINK_IsHalted() >0x198 JTAG>  returns FALSE (0002ms, 1250ms total)
T0DDC 046:110 JLINK_Halt() >0x240 JTAG> >0x198 JTAG> >0x17A8 JTAG>  returns 0x00 (0011ms, 1250ms total)
T0DDC 046:121 JLINK_IsHalted()  returns TRUE (0000ms, 1261ms total)
T0DDC 046:121 JLINK_IsHalted()  returns TRUE (0000ms, 1261ms total)
T0DDC 046:121 JLINK_IsHalted()  returns TRUE (0002ms, 1261ms total)
T0DDC 046:123 JLINK_ReadReg(R15)  returns 0x08002510 (0000ms, 1261ms total)
T0DDC 046:123 JLINK_ReadReg(XPSR)  returns 0x21000000 (0000ms, 1261ms total)
T0DDC 046:123 JLINK_ReadMemU32(0xE000ED30, 0x0001 Items, ...) -- CPU_ReadMem(4 bytes @ 0xE000ED30) -- Data:  0B 00 00 00  returns 0x01 (0002ms, 1261ms total)
T0DDC 046:125 JLINK_ReadMemU32(0xE0001028, 0x0001 Items, ...) -- CPU_ReadMem(4 bytes @ 0xE0001028) -- Data:  00 00 00 00  returns 0x01 (0001ms, 1263ms total)
T0DDC 046:126 JLINK_ReadMemU32(0xE0001038, 0x0001 Items, ...) -- CPU_ReadMem(4 bytes @ 0xE0001038) -- Data:  00 02 00 00  returns 0x01 (0001ms, 1264ms total)
T0DDC 046:127 JLINK_ReadMemU32(0xE0001048, 0x0001 Items, ...) -- CPU_ReadMem(4 bytes @ 0xE0001048) -- Data:  00 00 00 00  returns 0x01 (0001ms, 1265ms total)
T0DDC 046:128 JLINK_ReadMemU32(0xE0001058, 0x0001 Items, ...) -- CPU_ReadMem(4 bytes @ 0xE0001058) -- Data:  00 00 00 00  returns 0x01 (0001ms, 1266ms total)
T0DDC 046:129 JLINK_ReadReg(R0)  returns 0x00000010 (0001ms, 1267ms total)
T0DDC 046:130 JLINK_ReadReg(R1)  returns 0x20000000 (0000ms, 1268ms total)
T0DDC 046:130 JLINK_ReadReg(R2)  returns 0x0000FFFF (0000ms, 1268ms total)
T0DDC 046:130 JLINK_ReadReg(R3)  returns 0x0000FFFF (0000ms, 1268ms total)
T0DDC 046:130 JLINK_ReadReg(R4)  returns 0x00000014 (0000ms, 1268ms total)
T0DDC 046:130 JLINK_ReadReg(R5)  returns 0x0000011D (0000ms, 1268ms total)
T0DDC 046:130 JLINK_ReadReg(R6)  returns 0x00000000 (0000ms, 1268ms total)
T0DDC 046:130 JLINK_ReadReg(R7)  returns 0x00000000 (0001ms, 1268ms total)
T0DDC 046:131 JLINK_ReadReg(R8)  returns 0x0000FFFF (0000ms, 1269ms total)
T0DDC 046:131 JLINK_ReadReg(R9)  returns 0x20000160 (0000ms, 1269ms total)
T0DDC 046:131 JLINK_ReadReg(R10)  returns 0x00000000 (0000ms, 1269ms total)
T0DDC 046:131 JLINK_ReadReg(R11)  returns 0x00000000 (0000ms, 1269ms total)
T0DDC 046:131 JLINK_ReadReg(R12)  returns 0x0000000F (0000ms, 1269ms total)
T0DDC 046:131 JLINK_ReadReg(R13)  returns 0x200004A8 (0000ms, 1269ms total)
T0DDC 046:132 JLINK_ReadReg(R14)  returns 0x0800250B (0000ms, 1270ms total)
T0DDC 046:132 JLINK_ReadReg(R15)  returns 0x08002510 (0000ms, 1270ms total)
T0DDC 046:132 JLINK_ReadReg(XPSR)  returns 0x21000000 (0000ms, 1270ms total)
T0DDC 046:132 JLINK_ReadReg(MSP)  returns 0x200004A8 (0000ms, 1270ms total)
T0DDC 046:132 JLINK_ReadReg(PSP)  returns 0x20000800 (0000ms, 1270ms total)
T0DDC 046:132 JLINK_ReadReg(CFBP)  returns 0x00000000 (0000ms, 1270ms total)
T0DDC 046:132 JLINK_ReadMem (0x200004AC, 0x0004 Bytes, ...) -- CPU_ReadMem(64 bytes @ 0x20000480) -- Updating C cache (64 bytes @ 0x20000480) -- Read from C cache (4 bytes @ 0x200004AC) -- Data:  C1 25 00 08  returns 0x00 (0003ms, 1270ms total)
